
**** 12/16/24 02:22:13 *** PSpice 23.1.0 (29 September 2023) ** ID# 0 ********

 ** Profile: "SCHEMATIC1-tl431"  [ C:\Users\shustrik\Documents\Altium\buoy_v2\моделирование источника тока на тл431\tl431-PSpiceFiles


 ****     CIRCUIT DESCRIPTION


******************************************************************************




** Creating circuit file "tl431.cir" 
** WARNING: THIS AUTOMATICALLY GENERATED FILE MAY BE OVERWRITTEN BY SUBSEQUENT SIMULATIONS

*Libraries: 
* Profile Libraries :
* Local Libraries :
* From [PSPICE NETLIST] section of C:\Users\shustrik\AppData\Roaming\SPB_Data\cdssetup\OrCAD_PSpice\23.1.0\PSpice.ini file:
.lib "nom.lib" 

*Analysis directives: 
.TRAN  0 1ms 0 10u 
.OPTIONS ADVCONV
.PROBE64 V(alias(*)) I(alias(*)) W(alias(*)) D(alias(*)) NOISE(alias(*)) 
.INC "..\SCHEMATIC1.net" 



**** INCLUDING SCHEMATIC1.net ****
* source TL431
R_R2         N16065 VCC_ARROW  1.8k TC=0,0 
V_V2         VCC_ARROW 0 14
Q_Q1         N14576 N16275 N16065 BC327_1 
R_R3         0 N16275  1k TC=0,0 
X_D4         N16275 VCC_ARROW MMSZ5221BT1
R_R4         0 N14576  3k TC=0,0 

**** RESUMING tl431.cir ****
.END

**** 12/16/24 02:22:13 *** PSpice 23.1.0 (29 September 2023) ** ID# 0 ********

 ** Profile: "SCHEMATIC1-tl431"  [ C:\Users\shustrik\Documents\Altium\buoy_v2\моделирование источника тока на тл431\tl431-PSpiceFiles


 ****     Diode MODEL PARAMETERS


******************************************************************************




               X_D4.FWD_DIO    X_D4.MD_REV     X_D4.MD_REV2    
          IS  657.933000E-12    2.500000E-12    2.500000E-12 
           N    1.84949          .5              .65         
          RS    1.02                                         
          TT    2.000000E-09                                 
         CJO  210.000000E-12                                 
          EG                     .1              .1          
         XTI    1               0               0            


**** 12/16/24 02:22:13 *** PSpice 23.1.0 (29 September 2023) ** ID# 0 ********

 ** Profile: "SCHEMATIC1-tl431"  [ C:\Users\shustrik\Documents\Altium\buoy_v2\моделирование источника тока на тл431\tl431-PSpiceFiles


 ****     BJT MODEL PARAMETERS


******************************************************************************




               BC327_1         
               PNP             
       LEVEL    1            
          IS  230.000000E-15 
          BF  504.327        
          NF    1            
         VAF   26            
         IKF     .78         
         ISE   39.284000E-15 
          NE    1.944        
          BR   23            
          NR    1.002        
         VAR    4.5          
         IKR     .195        
         ISC  118.000000E-18 
          NC    3.025        
         ISS    0            
          RB     .8          
         RBM     .4          
         IRB  100.000000E-06 
          RE     .203        
          RC     .262        
         CJE   57.177000E-12 
         VJE    1            
         MJE     .47         
         CJC   28.600000E-12 
         VJC    1            
         MJC     .52         
        XCJC     .65         
         CJS    0            
         VJS     .75         
          FC     .75         
          TF  664.000000E-12 
         XTF    6.35         
         VTF    2            
         ITF     .25         
         PTF    1            
          TR    2.600000E-09 
         XTB    1.7          
         XTI    4.8          
          KF    5.000000E-15 
          AF    1            
          CN    2.2          
           D     .52         


**** 12/16/24 02:22:13 *** PSpice 23.1.0 (29 September 2023) ** ID# 0 ********

 ** Profile: "SCHEMATIC1-tl431"  [ C:\Users\shustrik\Documents\Altium\buoy_v2\моделирование источника тока на тл431\tl431-PSpiceFiles


 ****     Resistor MODEL PARAMETERS


******************************************************************************




               X_D4.MDR        X_D4.MDRBRK_SIg 
           R    1               1            
         TC1                 -369.340000E-06 


**** 12/16/24 02:22:13 *** PSpice 23.1.0 (29 September 2023) ** ID# 0 ********

 ** Profile: "SCHEMATIC1-tl431"  [ C:\Users\shustrik\Documents\Altium\buoy_v2\моделирование источника тока на тл431\tl431-PSpiceFiles


 ****     INITIAL TRANSIENT SOLUTION       TEMPERATURE =   27.000 DEG C


******************************************************************************



 NODE   VOLTAGE     NODE   VOLTAGE     NODE   VOLTAGE     NODE   VOLTAGE


(N14576)    3.1401 (N16065)   12.1130 (N16275)   11.5420 (X_D4.3)   11.5770     

(X_D4.4)   11.2150 (X_D4.5)   11.5890 (X_D4.6)    2.4109 (VCC_ARROW)   14.0000  




    VOLTAGE SOURCE CURRENTS
    NAME         CURRENT

    V_V2        -1.259E-02

    TOTAL POWER DISSIPATION   1.76E-01  WATTS



          JOB CONCLUDED

**** 12/16/24 02:22:13 *** PSpice 23.1.0 (29 September 2023) ** ID# 0 ********

 ** Profile: "SCHEMATIC1-tl431"  [ C:\Users\shustrik\Documents\Altium\buoy_v2\моделирование источника тока на тл431\tl431-PSpiceFiles


 ****     JOB STATISTICS SUMMARY


******************************************************************************



  Total job time (using Solver 1)   =         .02
